T2A64 000:075.901   SEGGER J-Link V6.86 Log File
T2A64 000:076.009   DLL Compiled: Sep 24 2020 17:31:31
T2A64 000:076.014   Logging started @ 2022-04-22 09:54
T2A64 000:076.018 - 76.020ms
T2A64 000:076.026 JLINK_SetWarnOutHandler(...)
T2A64 000:076.031 - 0.007ms
T2A64 000:076.036 JLINK_OpenEx(...)
T2A64 000:077.313   Firmware: J-Link V9 compiled Dec 13 2019 11:14:50
T2A64 000:077.486   Decompressing FW timestamp took 138 us
T2A64 000:083.233   Hardware: V9.60
T2A64 000:083.271   S/N: 69668008
T2A64 000:083.278   OEM: SEGGER
T2A64 000:083.284   Feature(s): RDI, GDB, FlashDL, FlashBP, JFlash
T2A64 000:084.071   TELNET listener socket opened on port 19021
T2A64 000:084.177   WEBSRV Starting webserver
T2A64 000:084.367   WEBSRV Webserver running on local port 19080
T2A64 000:084.379 - 8.345ms returns "O.K."
T2A64 000:084.394 JLINK_GetEmuCaps()
T2A64 000:084.401 - 0.009ms returns 0xB9FF7BBF
T2A64 000:084.411 JLINK_TIF_GetAvailable(...)
T2A64 000:084.525 - 0.119ms
T2A64 000:084.536 JLINK_SetErrorOutHandler(...)
T2A64 000:084.540 - 0.006ms
T2A64 000:084.561 JLINK_ExecCommand("ProjectFile = "F:\Robomaster2022\USTB_BISTU_HERO\USTB_BISTU_HERO4.19(autoaim)\USTB_BISTU_HERO\HERO\MDK-ARM\JLinkSettings.ini"", ...). 
T2A64 000:091.919   Ref file found at: F:\KEIL5.32\ARM\Segger\JLinkDevices.ref
T2A64 000:092.012   XML referenced by ref file: C:\Program Files (x86)\SEGGER\JLink\JLinkDevices.xml
T2A64 000:092.807   C:\Program Files (x86)\SEGGER\JLink\JLinkDevices.xml evaluated successfully.
T2A64 000:124.492 - 39.946ms returns 0x00
T2A64 000:124.546 JLINK_ExecCommand("Device = STM32F407IGHx", ...). 
T2A64 000:124.946   Device "STM32F407IG" selected.
T2A64 000:125.206 - 0.658ms returns 0x00
T2A64 000:125.227 JLINK_GetHardwareVersion()
T2A64 000:125.233 - 0.008ms returns 96000
T2A64 000:125.244 JLINK_GetDLLVersion()
T2A64 000:125.248 - 0.006ms returns 68600
T2A64 000:125.253 JLINK_GetOEMString(...)
T2A64 000:125.258 JLINK_GetFirmwareString(...)
T2A64 000:125.263 - 0.006ms
T2A64 000:125.282 JLINK_GetDLLVersion()
T2A64 000:125.286 - 0.006ms returns 68600
T2A64 000:125.291 JLINK_GetCompileDateTime()
T2A64 000:125.295 - 0.005ms
T2A64 000:125.307 JLINK_GetFirmwareString(...)
T2A64 000:125.311 - 0.006ms
T2A64 000:125.319 JLINK_GetHardwareVersion()
T2A64 000:125.323 - 0.010ms returns 96000
T2A64 000:125.344 JLINK_GetSN()
T2A64 000:125.349 - 0.007ms returns 69668008
T2A64 000:125.357 JLINK_GetOEMString(...)
T2A64 000:125.367 JLINK_TIF_Select(JLINKARM_TIF_SWD)
T2A64 000:125.894 - 0.532ms returns 0x00
T2A64 000:125.905 JLINK_HasError()
T2A64 000:125.921 JLINK_SetSpeed(5000)
T2A64 000:126.024 - 0.108ms
T2A64 000:126.035 JLINK_GetId()
T2A64 000:126.824   Found SW-DP with ID 0x2BA01477
T2A64 000:135.982   Found SW-DP with ID 0x2BA01477
T2A64 000:137.556   Old FW that does not support reading DPIDR via DAP jobs
T2A64 000:138.116   Unknown DP version. Assuming DPv0
T2A64 000:138.142   Scanning AP map to find all available APs
T2A64 000:138.610   AP[1]: Stopped AP scan as end of AP map has been reached
T2A64 000:138.635   AP[0]: AHB-AP (IDR: 0x24770011)
T2A64 000:138.645   Iterating through AP map to find AHB-AP to use
T2A64 000:139.267   AP[0]: Core found
T2A64 000:139.289   AP[0]: AHB-AP ROM base: 0xE00FF000
T2A64 000:139.654   CPUID register: 0x410FC241. Implementer code: 0x41 (ARM)
T2A64 000:139.702   Found Cortex-M4 r0p1, Little endian.
T2A64 000:240.576   -- Max. mem block: 0x00005990
T2A64 000:240.619   CPU_ReadMem(4 bytes @ 0xE000EDF0)
T2A64 000:241.001   CPU_ReadMem(4 bytes @ 0xE0002000)
T2A64 000:241.250   FPUnit: 6 code (BP) slots and 2 literal slots
T2A64 000:241.263   CPU_ReadMem(4 bytes @ 0xE000EDFC)
T2A64 000:241.538   CPU_WriteMem(4 bytes @ 0xE000EDFC)
T2A64 000:241.757   CPU_ReadMem(4 bytes @ 0xE0001000)
T2A64 000:241.981   CPU_WriteMem(4 bytes @ 0xE0001000)
T2A64 000:242.197   CPU_ReadMem(4 bytes @ 0xE000ED88)
T2A64 000:242.420   CPU_WriteMem(4 bytes @ 0xE000ED88)
T2A64 000:242.667   CPU_ReadMem(4 bytes @ 0xE000ED88)
T2A64 000:242.885   CPU_WriteMem(4 bytes @ 0xE000ED88)
T2A64 000:243.170   CoreSight components:
T2A64 000:243.183   ROMTbl[0] @ E00FF000
T2A64 000:243.191   CPU_ReadMem(64 bytes @ 0xE00FF000)
T2A64 000:243.653   CPU_ReadMem(32 bytes @ 0xE000EFE0)
T2A64 000:244.008   ROMTbl[0][0]: E000E000, CID: B105E00D, PID: 000BB00C SCS-M7
T2A64 000:244.030   CPU_ReadMem(32 bytes @ 0xE0001FE0)
T2A64 000:244.417   ROMTbl[0][1]: E0001000, CID: B105E00D, PID: 003BB002 DWT
T2A64 000:244.426   CPU_ReadMem(32 bytes @ 0xE0002FE0)
T2A64 000:244.786   ROMTbl[0][2]: E0002000, CID: B105E00D, PID: 002BB003 FPB
T2A64 000:244.797   CPU_ReadMem(32 bytes @ 0xE0000FE0)
T2A64 000:245.165   ROMTbl[0][3]: E0000000, CID: B105E00D, PID: 003BB001 ITM
T2A64 000:245.176   CPU_ReadMem(32 bytes @ 0xE0040FE0)
T2A64 000:245.618   ROMTbl[0][4]: E0040000, CID: B105900D, PID: 000BB9A1 TPIU
T2A64 000:245.628   CPU_ReadMem(32 bytes @ 0xE0041FE0)
T2A64 000:246.012   ROMTbl[0][5]: E0041000, CID: B105900D, PID: 000BB925 ETM
T2A64 000:246.254 - 120.224ms returns 0x2BA01477
T2A64 000:246.268 JLINK_GetDLLVersion()
T2A64 000:246.272 - 0.006ms returns 68600
T2A64 000:246.278 JLINK_CORE_GetFound()
T2A64 000:246.282 - 0.006ms returns 0xE0000FF
T2A64 000:246.288 JLINK_GetDebugInfo(0x100 = JLINKARM_ROM_TABLE_ADDR_INDEX)
T2A64 000:246.293   Value=0xE00FF000
T2A64 000:246.298 - 0.012ms returns 0
T2A64 000:246.334 JLINK_GetDebugInfo(0x100 = JLINKARM_ROM_TABLE_ADDR_INDEX)
T2A64 000:246.339   Value=0xE00FF000
T2A64 000:246.345 - 0.013ms returns 0
T2A64 000:246.350 JLINK_GetDebugInfo(0x101 = JLINKARM_DEBUG_INFO_ETM_ADDR_INDEX)
T2A64 000:246.364   Value=0xE0041000
T2A64 000:246.373 - 0.025ms returns 0
T2A64 000:246.384 JLINK_ReadMemEx(0xE0041FD0, 0x20 Bytes, Flags = 0x02000004)
T2A64 000:246.421   CPU_ReadMem(32 bytes @ 0xE0041FD0)
T2A64 000:246.773   Data:  04 00 00 00 00 00 00 00 00 00 00 00 00 00 00 00 ...
T2A64 000:246.782 - 0.399ms returns 32 (0x20)
T2A64 000:246.788 JLINK_GetDebugInfo(0x102 = JLINKARM_DEBUG_INFO_MTB_ADDR_INDEX)
T2A64 000:246.792   Value=0x00000000
T2A64 000:246.798 - 0.012ms returns 0
T2A64 000:246.802 JLINK_GetDebugInfo(0x103 = JLINKARM_DEBUG_INFO_TPIU_ADDR_INDEX)
T2A64 000:246.807   Value=0xE0040000
T2A64 000:246.812 - 0.011ms returns 0
T2A64 000:246.818 JLINK_GetDebugInfo(0x104 = JLINKARM_DEBUG_INFO_ITM_ADDR_INDEX)
T2A64 000:246.830   Value=0xE0000000
T2A64 000:246.836 - 0.019ms returns 0
T2A64 000:246.841 JLINK_GetDebugInfo(0x105 = JLINKARM_DEBUG_INFO_DWT_ADDR_INDEX)
T2A64 000:246.845   Value=0xE0001000
T2A64 000:246.851 - 0.011ms returns 0
T2A64 000:246.856 JLINK_GetDebugInfo(0x106 = JLINKARM_DEBUG_INFO_FPB_ADDR_INDEX)
T2A64 000:246.860   Value=0xE0002000
T2A64 000:246.867 - 0.013ms returns 0
T2A64 000:246.873 JLINK_GetDebugInfo(0x107 = JLINKARM_DEBUG_INFO_NVIC_ADDR_INDEX)
T2A64 000:246.878   Value=0xE000E000
T2A64 000:246.886 - 0.015ms returns 0
T2A64 000:246.893 JLINK_GetDebugInfo(0x10C = JLINKARM_DEBUG_INFO_DBG_ADDR_INDEX)
T2A64 000:246.897   Value=0xE000EDF0
T2A64 000:246.903 - 0.011ms returns 0
T2A64 000:246.907 JLINK_GetDebugInfo(0x01 = Unknown)
T2A64 000:246.911   Value=0x00000001
T2A64 000:246.917 - 0.011ms returns 0
T2A64 000:246.921 JLINK_ReadMemU32(0xE000ED00, 0x1 Items)
T2A64 000:246.932   CPU_ReadMem(4 bytes @ 0xE000ED00)
T2A64 000:247.154   Data:  41 C2 0F 41
T2A64 000:247.164   Debug reg: CPUID
T2A64 000:247.170 - 0.250ms returns 1 (0x1)
T2A64 000:247.177 JLINK_GetDebugInfo(0x10F = JLINKARM_DEBUG_INFO_HAS_CORTEX_M_SECURITY_EXT_INDEX)
T2A64 000:247.181   Value=0x00000000
T2A64 000:247.187 - 0.012ms returns 0
T2A64 000:247.192 JLINK_HasError()
T2A64 000:247.197 JLINK_SetResetType(JLINKARM_CM3_RESET_TYPE_NORMAL)
T2A64 000:247.201 - 0.006ms returns JLINKARM_CM3_RESET_TYPE_NORMAL
T2A64 000:247.206 JLINK_Reset()
T2A64 000:247.228   CPU is running
T2A64 000:247.235   CPU_WriteMem(4 bytes @ 0xE000EDF0)
T2A64 000:247.477   CPU is running
T2A64 000:247.490   CPU_WriteMem(4 bytes @ 0xE000EDFC)
T2A64 000:247.717   Reset: Halt core after reset via DEMCR.VC_CORERESET.
T2A64 000:247.992   Reset: Reset device via AIRCR.SYSRESETREQ.
T2A64 000:248.001   CPU is running
T2A64 000:248.014   CPU_WriteMem(4 bytes @ 0xE000ED0C)
T2A64 000:300.220   CPU_ReadMem(4 bytes @ 0xE000EDF0)
T2A64 000:300.551   CPU_ReadMem(4 bytes @ 0xE000EDF0)
T2A64 000:300.864   CPU is running
T2A64 000:300.872   CPU_WriteMem(4 bytes @ 0xE000EDF0)
T2A64 000:301.130   CPU is running
T2A64 000:301.139   CPU_WriteMem(4 bytes @ 0xE000EDFC)
T2A64 000:306.728   CPU_ReadMem(4 bytes @ 0xE000EDF0)
T2A64 000:308.946   CPU_WriteMem(4 bytes @ 0xE0002000)
T2A64 000:309.247   CPU_ReadMem(4 bytes @ 0xE000EDFC)
T2A64 000:309.547   CPU_ReadMem(4 bytes @ 0xE0001000)
T2A64 000:309.835 - 62.641ms
T2A64 000:309.871 JLINK_HasError()
T2A64 000:309.956 JLINK_ReadReg(R15 (PC))
T2A64 000:309.989 - 0.039ms returns 0x080003DC
T2A64 000:310.006 JLINK_ReadReg(XPSR)
T2A64 000:310.021 - 0.022ms returns 0x01000000
T2A64 000:310.039 JLINK_Halt()
T2A64 000:310.052 - 0.019ms returns 0x00
T2A64 000:310.068 JLINK_ReadMemU32(0xE000EDF0, 0x1 Items)
T2A64 000:310.092   CPU_ReadMem(4 bytes @ 0xE000EDF0)
T2A64 000:310.452   Data:  03 00 03 00
T2A64 000:310.489   Debug reg: DHCSR
T2A64 000:310.508 - 0.446ms returns 1 (0x1)
T2A64 000:310.552 JLINK_WriteU32_64(0xE000EDF0, 0xA05F0003)
T2A64 000:310.573   Debug reg: DHCSR
T2A64 000:310.650   CPU_WriteMem(4 bytes @ 0xE000EDF0)
T2A64 000:310.958 - 0.423ms returns 0 (0x00000000)
T2A64 000:310.989 JLINK_WriteU32_64(0xE000EDFC, 0x01000000)
T2A64 000:311.005   Debug reg: DEMCR
T2A64 000:311.038   CPU_WriteMem(4 bytes @ 0xE000EDFC)
T2A64 000:311.397 - 0.419ms returns 0 (0x00000000)
T2A64 000:311.479 JLINK_GetHWStatus(...)
T2A64 000:311.702 - 0.240ms returns 0
T2A64 000:311.782 JLINK_GetNumBPUnits(Type = 0xFFFFFF00)
T2A64 000:311.805 - 0.031ms returns 0x06
T2A64 000:311.827 JLINK_GetNumBPUnits(Type = 0xF0)
T2A64 000:311.841 - 0.020ms returns 0x2000
T2A64 000:311.856 JLINK_GetNumWPUnits()
T2A64 000:311.869 - 0.019ms returns 4
T2A64 000:311.910 JLINK_GetSpeed()
T2A64 000:311.924 - 0.020ms returns 4000
T2A64 000:311.953 JLINK_ReadMemU32(0xE000E004, 0x1 Items)
T2A64 000:311.979   CPU_ReadMem(4 bytes @ 0xE000E004)
T2A64 000:312.275   Data:  02 00 00 00
T2A64 000:312.307 - 0.360ms returns 1 (0x1)
T2A64 000:312.326 JLINK_ReadMemU32(0xE000E004, 0x1 Items)
T2A64 000:312.350   CPU_ReadMem(4 bytes @ 0xE000E004)
T2A64 000:312.626   Data:  02 00 00 00
T2A64 000:312.649 - 0.329ms returns 1 (0x1)
T2A64 000:312.667 JLINK_WriteMemEx(0xE0001000, 0x0000001C Bytes, Flags = 0x02000004)
T2A64 000:312.683   Data:  01 00 00 00 00 00 00 00 00 00 00 00 00 00 00 00 ...
T2A64 000:313.246   CPU_WriteMem(28 bytes @ 0xE0001000)
T2A64 000:313.636 - 0.979ms returns 0x1C
T2A64 000:313.659 JLINK_HasError()
T2A64 000:313.677 JLINK_ReadReg(R15 (PC))
T2A64 000:313.695 - 0.024ms returns 0x080003DC
T2A64 000:313.711 JLINK_ReadReg(XPSR)
T2A64 000:313.725 - 0.021ms returns 0x01000000
T2A64 000:319.989 JLINK_SWO_Control(JLINKARM_SWO_CMD_GET_SPEED_INFO, ...)
T2A64 000:320.263 - 0.288ms returns 0x00
T2A64 000:320.290 JLINK_SWO_Control(JLINKARM_SWO_CMD_STOP, ...)
T2A64 000:320.307 - 0.023ms returns 0x00
T2A64 000:320.323 JLINK_SWO_Control(JLINKARM_SWO_CMD_START, ...)
T2A64 000:320.647    -- UART
T2A64 000:320.689    -- 1250000bps
T2A64 000:321.089   CPU_ReadMem(4 bytes @ 0xE0042004)
T2A64 000:321.810 - 1.509ms returns 0x00
T2A64 000:321.849 JLINK_WriteU32_64(0xE0040010, 0x00000007)
T2A64 000:321.866   Debug reg: TPIU_ACPR
T2A64 000:321.914 - 0.077ms returns 0 (0x00000000)
T2A64 000:321.941 JLINK_WriteU32_64(0xE00400F0, 0x00000002)
T2A64 000:321.956   Debug reg: TPIU_SPPR
T2A64 000:321.982 - 0.048ms returns 0 (0x00000000)
T2A64 000:321.999 JLINK_WriteU32_64(0xE0040304, 0x00000000)
T2A64 000:322.013   Debug reg: TPIU_FFCR
T2A64 000:322.040 - 0.048ms returns 0 (0x00000000)
T2A64 000:322.056 JLINK_WriteU32_64(0xE0000FB0, 0xC5ACCE55)
T2A64 000:322.070   Debug reg: ITM_LOCKACCESS
T2A64 000:322.096   CPU_WriteMem(4 bytes @ 0xE0000FB0)
T2A64 000:322.445 - 0.415ms returns 0 (0x00000000)
T2A64 000:322.490 JLINK_WriteU32_64(0xE0000E80, 0x0001000D)
T2A64 000:322.506   Debug reg: ITM_TCR
T2A64 000:322.561 - 0.079ms returns 0 (0x00000000)
T2A64 000:322.579 JLINK_WriteU32_64(0xE0000E00, 0xFFFFFFFF)
T2A64 000:322.594   Debug reg: ITM_TER
T2A64 000:322.617 - 0.045ms returns 0 (0x00000000)
T2A64 000:322.634 JLINK_WriteU32_64(0xE0000E40, 0x00000008)
T2A64 000:322.648   Debug reg: ITM_TPR
T2A64 000:322.670 - 0.043ms returns 0 (0x00000000)
T2A64 000:322.686 JLINK_WriteU32_64(0xE0001000, 0x0001061F)
T2A64 000:322.700   Debug reg: DWT_CTRL
T2A64 000:322.722 - 0.042ms returns 0 (0x00000000)
T2A64 000:376.546 JLINK_ReadMemEx(0xE0001004, 0x4 Bytes, Flags = 0x02000000)
T2A64 000:376.582   Data:  00 00 00 00
T2A64 000:376.594   Debug reg: DWT_CYCCNT
T2A64 000:376.604 - 0.061ms returns 4 (0x4)
T2A64 001:459.226 JLINK_HasError()
T2A64 001:459.249 JLINK_SetResetType(JLINKARM_CM3_RESET_TYPE_NORMAL)
T2A64 001:459.254 - 0.007ms returns JLINKARM_CM3_RESET_TYPE_NORMAL
T2A64 001:459.260 JLINK_Reset()
T2A64 001:459.271   CPU_WriteMem(4 bytes @ 0xE0000E00)
T2A64 001:459.278   CPU_WriteMem(4 bytes @ 0xE0000E40)
T2A64 001:459.284   CPU_WriteMem(4 bytes @ 0xE0000E80)
T2A64 001:459.290   CPU_WriteMem(4 bytes @ 0xE0001000)
T2A64 001:459.308   CPU_WriteMem(4 bytes @ 0xE0040010)
T2A64 001:459.320   CPU_WriteMem(4 bytes @ 0xE00400F0)
T2A64 001:459.326   CPU_WriteMem(4 bytes @ 0xE0040304)
T2A64 001:460.392   CPU_WriteMem(4 bytes @ 0xE000EDF0)
T2A64 001:460.623   CPU_WriteMem(4 bytes @ 0xE000EDFC)
T2A64 001:460.872   Reset: Halt core after reset via DEMCR.VC_CORERESET.
T2A64 001:461.156   Reset: Reset device via AIRCR.SYSRESETREQ.
T2A64 001:461.167   CPU_WriteMem(4 bytes @ 0xE000ED0C)
T2A64 001:513.791   CPU_ReadMem(4 bytes @ 0xE000EDF0)
T2A64 001:514.016   CPU_ReadMem(4 bytes @ 0xE000EDF0)
T2A64 001:514.234   CPU_WriteMem(4 bytes @ 0xE000EDF0)
T2A64 001:514.519   CPU_WriteMem(4 bytes @ 0xE000EDFC)
T2A64 001:520.102   CPU_ReadMem(4 bytes @ 0xE000EDF0)
T2A64 001:522.184   CPU_WriteMem(4 bytes @ 0xE0002000)
T2A64 001:522.425   CPU_ReadMem(4 bytes @ 0xE000EDFC)
T2A64 001:522.651   CPU_ReadMem(4 bytes @ 0xE0001000)
T2A64 001:522.907   CPU_ReadMem(4 bytes @ 0xE0042004)
T2A64 001:523.127 - 63.874ms
T2A64 001:523.144 JLINK_WriteU32_64(0xE000EDFC, 0x01000000)
T2A64 001:523.151   Debug reg: DEMCR
T2A64 001:523.165   CPU_WriteMem(4 bytes @ 0xE000EDFC)
T2A64 001:523.399 - 0.260ms returns 0 (0x00000000)
T2A64 001:523.577 JLINK_HasError()
T2A64 001:523.587 JLINK_ReadReg(R15 (PC))
T2A64 001:523.594 - 0.009ms returns 0x080003DC
T2A64 001:523.600 JLINK_ReadReg(XPSR)
T2A64 001:523.604 - 0.006ms returns 0x01000000
T2A64 001:528.175 JLINK_ReadMemEx(0x080003DC, 0x3C Bytes, Flags = 0x02000000)
T2A64 001:528.190   CPU_ReadMem(128 bytes @ 0x080003C0)
T2A64 001:528.947    -- Updating C cache (128 bytes @ 0x080003C0)
T2A64 001:528.958    -- Read from C cache (60 bytes @ 0x080003DC)
T2A64 001:528.978   Data:  09 48 80 47 09 48 00 47 FE E7 FE E7 FE E7 FE E7 ...
T2A64 001:528.983 - 0.810ms returns 60 (0x3C)
T2A64 001:528.990 JLINK_ReadMemEx(0x080003DC, 0x2 Bytes, Flags = 0x02000000)
T2A64 001:528.995    -- Read from C cache (2 bytes @ 0x080003DC)
T2A64 001:529.001   Data:  09 48
T2A64 001:529.006 - 0.018ms returns 2 (0x2)
T2A64 001:529.074 JLINK_ReadMemEx(0x080003DE, 0x2 Bytes, Flags = 0x02000000)
T2A64 001:529.082    -- Read from C cache (2 bytes @ 0x080003DE)
T2A64 001:529.088   Data:  80 47
T2A64 001:529.094 - 0.021ms returns 2 (0x2)
T2A64 001:529.120 JLINK_ReadMemEx(0x080003DE, 0x2 Bytes, Flags = 0x02000000)
T2A64 001:529.125    -- Read from C cache (2 bytes @ 0x080003DE)
T2A64 001:529.131   Data:  80 47
T2A64 001:529.136 - 0.017ms returns 2 (0x2)
T2A64 001:529.141 JLINK_ReadMemEx(0x080003E0, 0x3C Bytes, Flags = 0x02000000)
T2A64 001:529.145    -- Read from C cache (60 bytes @ 0x080003E0)
T2A64 001:529.151   Data:  09 48 00 47 FE E7 FE E7 FE E7 FE E7 FE E7 FE E7 ...
T2A64 001:529.157 - 0.017ms returns 60 (0x3C)
T2A64 001:529.161 JLINK_ReadMemEx(0x080003E0, 0x2 Bytes, Flags = 0x02000000)
T2A64 001:529.166    -- Read from C cache (2 bytes @ 0x080003E0)
T2A64 001:529.171   Data:  09 48
T2A64 001:529.247 - 0.088ms returns 2 (0x2)
T2A64 001:652.158 JLINK_WriteU32_64(0xE0001008, 0x00000000)
T2A64 001:652.178   Debug reg: DWT_CPICNT
T2A64 001:652.194 - 0.038ms returns 0 (0x00000000)
T2A64 001:652.200 JLINK_WriteU32_64(0xE000100C, 0x00000000)
T2A64 001:652.204   Debug reg: DWT_EXCCNT
T2A64 001:652.211 - 0.013ms returns 0 (0x00000000)
T2A64 001:652.216 JLINK_WriteU32_64(0xE0001010, 0x00000000)
T2A64 001:652.220   Debug reg: DWT_SLEEPCNT
T2A64 001:652.227 - 0.012ms returns 0 (0x00000000)
T2A64 001:652.232 JLINK_WriteU32_64(0xE0001014, 0x00000000)
T2A64 001:652.236   Debug reg: DWT_LSUCNT
T2A64 001:652.242 - 0.012ms returns 0 (0x00000000)
T2A64 001:652.247 JLINK_WriteU32_64(0xE0001018, 0x00000000)
T2A64 001:652.251   Debug reg: DWT_FOLDCNT
T2A64 001:652.258 - 0.012ms returns 0 (0x00000000)
T2A64 002:707.967 JLINK_ReadMemEx(0x080003E0, 0x3C Bytes, Flags = 0x02000000)
T2A64 002:707.991    -- Read from C cache (60 bytes @ 0x080003E0)
T2A64 002:707.998   Data:  09 48 00 47 FE E7 FE E7 FE E7 FE E7 FE E7 FE E7 ...
T2A64 002:708.004 - 0.038ms returns 60 (0x3C)
T2A64 002:708.009 JLINK_ReadMemEx(0x080003E0, 0x2 Bytes, Flags = 0x02000000)
T2A64 002:708.014    -- Read from C cache (2 bytes @ 0x080003E0)
T2A64 002:708.020   Data:  09 48
T2A64 002:708.026 - 0.018ms returns 2 (0x2)
T2A64 002:708.031 JLINK_ReadMemEx(0x080003E2, 0x2 Bytes, Flags = 0x02000000)
T2A64 002:708.036    -- Read from C cache (2 bytes @ 0x080003E2)
T2A64 002:708.041   Data:  00 47
T2A64 002:708.047 - 0.017ms returns 2 (0x2)
T2A64 002:937.020 JLINK_HasError()
T2A64 002:937.041 JLINK_ReadReg(R0)
T2A64 002:937.259 - 0.226ms returns 0x00000000
T2A64 002:937.273 JLINK_ReadReg(R1)
T2A64 002:937.278 - 0.007ms returns 0x00000000
T2A64 002:937.284 JLINK_ReadReg(R2)
T2A64 002:937.288 - 0.006ms returns 0x00000000
T2A64 002:937.293 JLINK_ReadReg(R3)
T2A64 002:937.297 - 0.006ms returns 0x00000000
T2A64 002:937.303 JLINK_ReadReg(R4)
T2A64 002:937.307 - 0.006ms returns 0x00000000
T2A64 002:937.313 JLINK_ReadReg(R5)
T2A64 002:937.319 - 0.008ms returns 0x00000000
T2A64 002:937.325 JLINK_ReadReg(R6)
T2A64 002:937.331 - 0.008ms returns 0x00000000
T2A64 002:937.336 JLINK_ReadReg(R7)
T2A64 002:937.340 - 0.006ms returns 0x00000000
T2A64 002:937.345 JLINK_ReadReg(R8)
T2A64 002:937.396 - 0.056ms returns 0x00000000
T2A64 002:937.405 JLINK_ReadReg(R9)
T2A64 002:937.411 - 0.007ms returns 0x00000000
T2A64 002:937.416 JLINK_ReadReg(R10)
T2A64 002:937.420 - 0.018ms returns 0x00000000
T2A64 002:937.437 JLINK_ReadReg(R11)
T2A64 002:937.441 - 0.006ms returns 0x00000000
T2A64 002:937.446 JLINK_ReadReg(R12)
T2A64 002:937.450 - 0.006ms returns 0x00000000
T2A64 002:937.454 JLINK_ReadReg(R13 (SP))
T2A64 002:937.459 - 0.006ms returns 0x2000F480
T2A64 002:937.463 JLINK_ReadReg(R14)
T2A64 002:937.467 - 0.006ms returns 0xFFFFFFFF
T2A64 002:937.472 JLINK_ReadReg(R15 (PC))
T2A64 002:937.476 - 0.006ms returns 0x080003DC
T2A64 002:937.481 JLINK_ReadReg(XPSR)
T2A64 002:937.485 - 0.006ms returns 0x01000000
T2A64 002:937.490 JLINK_ReadReg(MSP)
T2A64 002:937.494 - 0.006ms returns 0x2000F480
T2A64 002:937.498 JLINK_ReadReg(PSP)
T2A64 002:937.503 - 0.022ms returns 0x00000000
T2A64 002:937.527 JLINK_ReadReg(CFBP)
T2A64 002:937.539 - 0.014ms returns 0x00000000
T2A64 002:937.545 JLINK_ReadReg(FPSCR)
T2A64 002:940.380 - 2.839ms returns 0x00000000
T2A64 002:940.389 JLINK_ReadReg(FPS0)
T2A64 002:940.394 - 0.007ms returns 0x00000000
T2A64 002:940.399 JLINK_ReadReg(FPS1)
T2A64 002:940.403 - 0.006ms returns 0x00000000
T2A64 002:940.408 JLINK_ReadReg(FPS2)
T2A64 002:940.412 - 0.006ms returns 0x00000000
T2A64 002:940.417 JLINK_ReadReg(FPS3)
T2A64 002:940.421 - 0.006ms returns 0x00000000
T2A64 002:940.426 JLINK_ReadReg(FPS4)
T2A64 002:940.430 - 0.006ms returns 0x00000000
T2A64 002:940.435 JLINK_ReadReg(FPS5)
T2A64 002:940.439 - 0.006ms returns 0x00000000
T2A64 002:940.444 JLINK_ReadReg(FPS6)
T2A64 002:940.448 - 0.006ms returns 0x00000000
T2A64 002:940.453 JLINK_ReadReg(FPS7)
T2A64 002:940.457 - 0.006ms returns 0x00000000
T2A64 002:940.464 JLINK_ReadReg(FPS8)
T2A64 002:940.470 - 0.008ms returns 0x00000000
T2A64 002:940.475 JLINK_ReadReg(FPS9)
T2A64 002:940.479 - 0.006ms returns 0x00000000
T2A64 002:940.484 JLINK_ReadReg(FPS10)
T2A64 002:940.488 - 0.006ms returns 0x00000000
T2A64 002:940.493 JLINK_ReadReg(FPS11)
T2A64 002:940.497 - 0.006ms returns 0x00000000
T2A64 002:940.502 JLINK_ReadReg(FPS12)
T2A64 002:940.506 - 0.006ms returns 0x00000000
T2A64 002:940.511 JLINK_ReadReg(FPS13)
T2A64 002:940.515 - 0.006ms returns 0x00000000
T2A64 002:940.520 JLINK_ReadReg(FPS14)
T2A64 002:940.527 - 0.015ms returns 0x00000000
T2A64 002:940.539 JLINK_ReadReg(FPS15)
T2A64 002:940.545 - 0.007ms returns 0x00000000
T2A64 002:940.550 JLINK_ReadReg(FPS16)
T2A64 002:940.554 - 0.006ms returns 0x00000000
T2A64 002:940.559 JLINK_ReadReg(FPS17)
T2A64 002:940.563 - 0.006ms returns 0x00000000
T2A64 002:940.568 JLINK_ReadReg(FPS18)
T2A64 002:940.572 - 0.006ms returns 0x00000000
T2A64 002:940.577 JLINK_ReadReg(FPS19)
T2A64 002:940.581 - 0.006ms returns 0x00000000
T2A64 002:940.586 JLINK_ReadReg(FPS20)
T2A64 002:940.590 - 0.006ms returns 0x00000000
T2A64 002:940.594 JLINK_ReadReg(FPS21)
T2A64 002:940.599 - 0.006ms returns 0x00000000
T2A64 002:940.603 JLINK_ReadReg(FPS22)
T2A64 002:940.608 - 0.006ms returns 0x00000000
T2A64 002:940.612 JLINK_ReadReg(FPS23)
T2A64 002:940.617 - 0.006ms returns 0x00000000
T2A64 002:940.621 JLINK_ReadReg(FPS24)
T2A64 002:940.625 - 0.006ms returns 0x00000000
T2A64 002:940.635 JLINK_ReadReg(FPS25)
T2A64 002:940.648 - 0.014ms returns 0x00000000
T2A64 002:940.653 JLINK_ReadReg(FPS26)
T2A64 002:940.658 - 0.006ms returns 0x00000000
T2A64 002:940.662 JLINK_ReadReg(FPS27)
T2A64 002:940.667 - 0.006ms returns 0x00000000
T2A64 002:940.671 JLINK_ReadReg(FPS28)
T2A64 002:940.675 - 0.006ms returns 0x00000000
T2A64 002:940.680 JLINK_ReadReg(FPS29)
T2A64 002:940.684 - 0.006ms returns 0x00000000
T2A64 002:940.689 JLINK_ReadReg(FPS30)
T2A64 002:940.693 - 0.006ms returns 0x00000000
T2A64 002:940.698 JLINK_ReadReg(FPS31)
T2A64 002:940.702 - 0.006ms returns 0x00000000
T2A64 003:019.339 JLINK_ReadMemEx(0x2000A958, 0x10 Bytes, Flags = 0x02000000)
T2A64 003:019.368   CPU_ReadMem(64 bytes @ 0x2000A940)
T2A64 003:020.077    -- Updating C cache (64 bytes @ 0x2000A940)
T2A64 003:020.101    -- Read from C cache (16 bytes @ 0x2000A958)
T2A64 003:020.121   Data:  00 4D 4E 48 30 39 30 30 30 30 35 34 31 33 36 30
T2A64 003:020.127 - 0.790ms returns 16 (0x10)
T2A64 003:058.546 JLINK_ReadMemEx(0x200002B0, 0x4 Bytes, Flags = 0x02000000)
T2A64 003:058.576   CPU_ReadMem(64 bytes @ 0x20000280)
T2A64 003:059.147    -- Updating C cache (64 bytes @ 0x20000280)
T2A64 003:059.156    -- Read from C cache (4 bytes @ 0x200002B0)
T2A64 003:059.162   Data:  00 00 00 00
T2A64 003:059.167 - 0.623ms returns 4 (0x4)
T2A64 003:059.851 JLINK_ReadMemEx(0x200002B0, 0x4 Bytes, Flags = 0x02000000)
T2A64 003:059.859    -- Read from C cache (4 bytes @ 0x200002B0)
T2A64 003:059.865   Data:  00 00 00 00
T2A64 003:059.871 - 0.021ms returns 4 (0x4)
T2A64 003:059.890 JLINK_ReadMemEx(0x200002B0, 0x4 Bytes, Flags = 0x02000000)
T2A64 003:059.896    -- Read from C cache (4 bytes @ 0x200002B0)
T2A64 003:059.902   Data:  00 00 00 00
T2A64 003:059.907 - 0.018ms returns 4 (0x4)
T2A64 003:079.178 JLINK_ReadMemEx(0x20000514, 0x4 Bytes, Flags = 0x02000000)
T2A64 003:079.209   CPU_ReadMem(64 bytes @ 0x20000500)
T2A64 003:079.676    -- Updating C cache (64 bytes @ 0x20000500)
T2A64 003:079.689    -- Read from C cache (4 bytes @ 0x20000514)
T2A64 003:079.695   Data:  00 00 00 00
T2A64 003:079.701 - 0.525ms returns 4 (0x4)
T2A64 003:080.511 JLINK_ReadMemEx(0x20000514, 0x4 Bytes, Flags = 0x02000000)
T2A64 003:080.521    -- Read from C cache (4 bytes @ 0x20000514)
T2A64 003:080.527   Data:  00 00 00 00
T2A64 003:080.532 - 0.023ms returns 4 (0x4)
T2A64 003:080.556 JLINK_ReadMemEx(0x20000514, 0x4 Bytes, Flags = 0x02000000)
T2A64 003:080.577    -- Read from C cache (4 bytes @ 0x20000514)
T2A64 003:080.583   Data:  00 00 00 00
T2A64 003:080.588 - 0.038ms returns 4 (0x4)
T2A64 003:092.530 JLINK_ReadMemEx(0x2000048C, 0x4 Bytes, Flags = 0x02000000)
T2A64 003:092.561   CPU_ReadMem(64 bytes @ 0x20000480)
T2A64 003:093.085    -- Updating C cache (64 bytes @ 0x20000480)
T2A64 003:093.124    -- Read from C cache (4 bytes @ 0x2000048C)
T2A64 003:093.164   Data:  00 00 00 00
T2A64 003:093.185 - 0.656ms returns 4 (0x4)
T2A64 003:093.857 JLINK_ReadMemEx(0x2000048C, 0x4 Bytes, Flags = 0x02000000)
T2A64 003:093.864    -- Read from C cache (4 bytes @ 0x2000048C)
T2A64 003:093.870   Data:  00 00 00 00
T2A64 003:093.876 - 0.021ms returns 4 (0x4)
T2A64 003:093.895 JLINK_ReadMemEx(0x2000048C, 0x4 Bytes, Flags = 0x02000000)
T2A64 003:093.901    -- Read from C cache (4 bytes @ 0x2000048C)
T2A64 003:093.907   Data:  00 00 00 00
T2A64 003:093.912 - 0.018ms returns 4 (0x4)
T2A64 003:104.318 JLINK_ReadMemEx(0x20000490, 0x4 Bytes, Flags = 0x02000000)
T2A64 003:104.346    -- Read from C cache (4 bytes @ 0x20000490)
T2A64 003:104.352   Data:  00 00 00 00
T2A64 003:104.359 - 0.042ms returns 4 (0x4)
T2A64 003:105.201 JLINK_ReadMemEx(0x20000490, 0x4 Bytes, Flags = 0x02000000)
T2A64 003:105.211    -- Read from C cache (4 bytes @ 0x20000490)
T2A64 003:105.217   Data:  00 00 00 00
T2A64 003:105.222 - 0.023ms returns 4 (0x4)
T2A64 003:105.244 JLINK_ReadMemEx(0x20000490, 0x4 Bytes, Flags = 0x02000000)
T2A64 003:105.250    -- Read from C cache (4 bytes @ 0x20000490)
T2A64 003:105.255   Data:  00 00 00 00
T2A64 003:105.261 - 0.019ms returns 4 (0x4)
T2A64 003:125.062 JLINK_ReadMemEx(0x200005DC, 0x4 Bytes, Flags = 0x02000000)
T2A64 003:125.117   CPU_ReadMem(64 bytes @ 0x200005C0)
T2A64 003:125.799    -- Updating C cache (64 bytes @ 0x200005C0)
T2A64 003:125.820    -- Read from C cache (4 bytes @ 0x200005DC)
T2A64 003:125.827   Data:  9A 99 59 41
T2A64 003:125.833 - 0.773ms returns 4 (0x4)
T2A64 003:126.926 JLINK_ReadMemEx(0x200005DC, 0x4 Bytes, Flags = 0x02000000)
T2A64 003:126.948    -- Read from C cache (4 bytes @ 0x200005DC)
T2A64 003:126.954   Data:  9A 99 59 41
T2A64 003:126.960 - 0.035ms returns 4 (0x4)
T2A64 003:126.986 JLINK_ReadMemEx(0x200005DC, 0x4 Bytes, Flags = 0x02000000)
T2A64 003:126.993    -- Read from C cache (4 bytes @ 0x200005DC)
T2A64 003:126.998   Data:  9A 99 59 41
T2A64 003:127.004 - 0.019ms returns 4 (0x4)
T2A64 003:149.462 JLINK_ReadMemEx(0x200005BC, 0x4 Bytes, Flags = 0x02000000)
T2A64 003:149.493   CPU_ReadMem(64 bytes @ 0x20000580)
T2A64 003:149.982    -- Updating C cache (64 bytes @ 0x20000580)
T2A64 003:149.996    -- Read from C cache (4 bytes @ 0x200005BC)
T2A64 003:150.003   Data:  00 00 00 00
T2A64 003:150.009 - 0.549ms returns 4 (0x4)
T2A64 003:150.990 JLINK_ReadMemEx(0x200005BC, 0x4 Bytes, Flags = 0x02000000)
T2A64 003:151.025    -- Read from C cache (4 bytes @ 0x200005BC)
T2A64 003:151.031   Data:  00 00 00 00
T2A64 003:151.037 - 0.049ms returns 4 (0x4)
T2A64 003:151.064 JLINK_ReadMemEx(0x200005BC, 0x4 Bytes, Flags = 0x02000000)
T2A64 003:151.083    -- Read from C cache (4 bytes @ 0x200005BC)
T2A64 003:151.089   Data:  00 00 00 00
T2A64 003:151.109 - 0.047ms returns 4 (0x4)
T2A64 003:175.267 JLINK_ReadMemEx(0x2000034C, 0x4 Bytes, Flags = 0x02000000)
T2A64 003:175.300   CPU_ReadMem(64 bytes @ 0x20000340)
T2A64 003:175.838    -- Updating C cache (64 bytes @ 0x20000340)
T2A64 003:175.856    -- Read from C cache (4 bytes @ 0x2000034C)
T2A64 003:175.865   Data:  00 00 00 00
T2A64 003:175.873 - 0.609ms returns 4 (0x4)
T2A64 003:176.916 JLINK_ReadMemEx(0x2000034C, 0x4 Bytes, Flags = 0x02000000)
T2A64 003:176.940    -- Read from C cache (4 bytes @ 0x2000034C)
T2A64 003:176.947   Data:  00 00 00 00
T2A64 003:176.953 - 0.038ms returns 4 (0x4)
T2A64 003:176.982 JLINK_ReadMemEx(0x2000034C, 0x4 Bytes, Flags = 0x02000000)
T2A64 003:176.989    -- Read from C cache (4 bytes @ 0x2000034C)
T2A64 003:176.995   Data:  00 00 00 00
T2A64 003:177.000 - 0.020ms returns 4 (0x4)
T2A64 003:183.745 JLINK_ReadMemEx(0x2000033C, 0x4 Bytes, Flags = 0x02000000)
T2A64 003:183.777   CPU_ReadMem(64 bytes @ 0x20000300)
T2A64 003:184.262    -- Updating C cache (64 bytes @ 0x20000300)
T2A64 003:184.278    -- Read from C cache (4 bytes @ 0x2000033C)
T2A64 003:184.284   Data:  00 00 00 00
T2A64 003:184.290 - 0.547ms returns 4 (0x4)
T2A64 003:185.056 JLINK_ReadMemEx(0x2000033C, 0x4 Bytes, Flags = 0x02000000)
T2A64 003:185.075    -- Read from C cache (4 bytes @ 0x2000033C)
T2A64 003:185.081   Data:  00 00 00 00
T2A64 003:185.087 - 0.033ms returns 4 (0x4)
T2A64 003:185.113 JLINK_ReadMemEx(0x2000033C, 0x4 Bytes, Flags = 0x02000000)
T2A64 003:185.119    -- Read from C cache (4 bytes @ 0x2000033C)
T2A64 003:185.125   Data:  00 00 00 00
T2A64 003:185.131 - 0.019ms returns 4 (0x4)
T2A64 003:191.036 JLINK_ReadMemEx(0x200002F8, 0x4 Bytes, Flags = 0x02000000)
T2A64 003:191.069   CPU_ReadMem(64 bytes @ 0x200002C0)
T2A64 003:191.555    -- Updating C cache (64 bytes @ 0x200002C0)
T2A64 003:191.570    -- Read from C cache (4 bytes @ 0x200002F8)
T2A64 003:191.580   Data:  00 00 00 00
T2A64 003:191.588 - 0.555ms returns 4 (0x4)
T2A64 003:192.416 JLINK_ReadMemEx(0x200002F8, 0x4 Bytes, Flags = 0x02000000)
T2A64 003:192.432    -- Read from C cache (4 bytes @ 0x200002F8)
T2A64 003:192.438   Data:  00 00 00 00
T2A64 003:192.444 - 0.030ms returns 4 (0x4)
T2A64 003:192.468 JLINK_ReadMemEx(0x200002F8, 0x4 Bytes, Flags = 0x02000000)
T2A64 003:192.475    -- Read from C cache (4 bytes @ 0x200002F8)
T2A64 003:192.480   Data:  00 00 00 00
T2A64 003:192.486 - 0.019ms returns 4 (0x4)
T2A64 003:198.397 JLINK_ReadMemEx(0x20000484, 0x4 Bytes, Flags = 0x02000000)
T2A64 003:198.423    -- Read from C cache (4 bytes @ 0x20000484)
T2A64 003:198.429   Data:  00 00 00 00
T2A64 003:198.435 - 0.040ms returns 4 (0x4)
T2A64 003:199.183 JLINK_ReadMemEx(0x20000484, 0x4 Bytes, Flags = 0x02000000)
T2A64 003:199.195    -- Read from C cache (4 bytes @ 0x20000484)
T2A64 003:199.202   Data:  00 00 00 00
T2A64 003:199.207 - 0.026ms returns 4 (0x4)
T2A64 003:199.231 JLINK_ReadMemEx(0x20000484, 0x4 Bytes, Flags = 0x02000000)
T2A64 003:199.239    -- Read from C cache (4 bytes @ 0x20000484)
T2A64 003:199.247   Data:  00 00 00 00
T2A64 003:199.253 - 0.023ms returns 4 (0x4)
T2A64 003:204.827 JLINK_ReadMemEx(0x200005A8, 0x4 Bytes, Flags = 0x02000000)
T2A64 003:204.854    -- Read from C cache (4 bytes @ 0x200005A8)
T2A64 003:204.861   Data:  00 00 00 00
T2A64 003:204.867 - 0.043ms returns 4 (0x4)
T2A64 003:205.608 JLINK_ReadMemEx(0x200005A8, 0x4 Bytes, Flags = 0x02000000)
T2A64 003:205.620    -- Read from C cache (4 bytes @ 0x200005A8)
T2A64 003:205.627   Data:  00 00 00 00
T2A64 003:205.632 - 0.026ms returns 4 (0x4)
T2A64 003:205.657 JLINK_ReadMemEx(0x200005A8, 0x4 Bytes, Flags = 0x02000000)
T2A64 003:205.663    -- Read from C cache (4 bytes @ 0x200005A8)
T2A64 003:205.669   Data:  00 00 00 00
T2A64 003:205.674 - 0.019ms returns 4 (0x4)
T2A64 003:216.522 JLINK_ReadMemEx(0x20000550, 0x4 Bytes, Flags = 0x02000000)
T2A64 003:216.553   CPU_ReadMem(64 bytes @ 0x20000540)
T2A64 003:217.041    -- Updating C cache (64 bytes @ 0x20000540)
T2A64 003:217.051    -- Read from C cache (4 bytes @ 0x20000550)
T2A64 003:217.058   Data:  00 00 00 00
T2A64 003:217.064 - 0.544ms returns 4 (0x4)
T2A64 003:217.911 JLINK_ReadMemEx(0x20000550, 0x4 Bytes, Flags = 0x02000000)
T2A64 003:217.924    -- Read from C cache (4 bytes @ 0x20000550)
T2A64 003:217.930   Data:  00 00 00 00
T2A64 003:217.936 - 0.026ms returns 4 (0x4)
T2A64 003:217.960 JLINK_ReadMemEx(0x20000550, 0x4 Bytes, Flags = 0x02000000)
T2A64 003:217.966    -- Read from C cache (4 bytes @ 0x20000550)
T2A64 003:217.972   Data:  00 00 00 00
T2A64 003:217.978 - 0.020ms returns 4 (0x4)
T2A64 003:222.757 JLINK_ReadMemEx(0x20000548, 0x4 Bytes, Flags = 0x02000000)
T2A64 003:222.787    -- Read from C cache (4 bytes @ 0x20000548)
T2A64 003:222.794   Data:  00 00 00 00
T2A64 003:222.800 - 0.045ms returns 4 (0x4)
T2A64 003:223.460 JLINK_ReadMemEx(0x20000548, 0x4 Bytes, Flags = 0x02000000)
T2A64 003:223.471    -- Read from C cache (4 bytes @ 0x20000548)
T2A64 003:223.477   Data:  00 00 00 00
T2A64 003:223.482 - 0.024ms returns 4 (0x4)
T2A64 003:223.546 JLINK_ReadMemEx(0x20000548, 0x4 Bytes, Flags = 0x02000000)
T2A64 003:223.557    -- Read from C cache (4 bytes @ 0x20000548)
T2A64 003:223.563   Data:  00 00 00 00
T2A64 003:223.569 - 0.024ms returns 4 (0x4)
T2A64 003:229.890 JLINK_ReadMemEx(0x200005A8, 0x4 Bytes, Flags = 0x02000000)
T2A64 003:229.918    -- Read from C cache (4 bytes @ 0x200005A8)
T2A64 003:229.924   Data:  00 00 00 00
T2A64 003:229.930 - 0.042ms returns 4 (0x4)
T2A64 003:230.926 JLINK_ReadMemEx(0x200005A8, 0x4 Bytes, Flags = 0x02000000)
T2A64 003:230.952    -- Read from C cache (4 bytes @ 0x200005A8)
T2A64 003:230.959   Data:  00 00 00 00
T2A64 003:230.965 - 0.040ms returns 4 (0x4)
T2A64 003:230.993 JLINK_ReadMemEx(0x200005A8, 0x4 Bytes, Flags = 0x02000000)
T2A64 003:231.000    -- Read from C cache (4 bytes @ 0x200005A8)
T2A64 003:231.006   Data:  00 00 00 00
T2A64 003:231.012 - 0.020ms returns 4 (0x4)
T2A64 003:234.461 JLINK_ReadMemEx(0x2000053C, 0x4 Bytes, Flags = 0x02000000)
T2A64 003:234.486    -- Read from C cache (4 bytes @ 0x2000053C)
T2A64 003:234.493   Data:  00 00 00 00
T2A64 003:234.499 - 0.039ms returns 4 (0x4)
T2A64 003:235.305 JLINK_ReadMemEx(0x2000053C, 0x4 Bytes, Flags = 0x02000000)
T2A64 003:235.318    -- Read from C cache (4 bytes @ 0x2000053C)
T2A64 003:235.325   Data:  00 00 00 00
T2A64 003:235.331 - 0.027ms returns 4 (0x4)
T2A64 003:235.353 JLINK_ReadMemEx(0x2000053C, 0x4 Bytes, Flags = 0x02000000)
T2A64 003:235.359    -- Read from C cache (4 bytes @ 0x2000053C)
T2A64 003:235.365   Data:  00 00 00 00
T2A64 003:235.371 - 0.019ms returns 4 (0x4)
T2A64 003:240.791 JLINK_ReadMemEx(0x200005E0, 0x4 Bytes, Flags = 0x02000000)
T2A64 003:240.822    -- Read from C cache (4 bytes @ 0x200005E0)
T2A64 003:240.829   Data:  00 00 00 00
T2A64 003:240.836 - 0.047ms returns 4 (0x4)
T2A64 003:241.591 JLINK_ReadMemEx(0x200005E0, 0x4 Bytes, Flags = 0x02000000)
T2A64 003:241.604    -- Read from C cache (4 bytes @ 0x200005E0)
T2A64 003:241.610   Data:  00 00 00 00
T2A64 003:241.616 - 0.026ms returns 4 (0x4)
T2A64 003:241.641 JLINK_ReadMemEx(0x200005E0, 0x4 Bytes, Flags = 0x02000000)
T2A64 003:241.647    -- Read from C cache (4 bytes @ 0x200005E0)
T2A64 003:241.653   Data:  00 00 00 00
T2A64 003:241.658 - 0.019ms returns 4 (0x4)
T87B0 003:489.552 JLINK_ReadMemEx(0x080003DC, 0x2 Bytes, Flags = 0x02000000)
T87B0 003:489.604    -- Read from C cache (2 bytes @ 0x080003DC)
T87B0 003:489.625   Data:  09 48
T87B0 003:489.631 - 0.082ms returns 2 (0x2)
T87B0 003:489.637 JLINK_HasError()
T87B0 003:489.659 JLINK_SetBPEx(Addr = 0x0801864C, Type = 0xFFFFFFF2)
T87B0 003:489.676 - 0.025ms returns 0x00000001
T87B0 003:489.688 JLINK_HasError()
T87B0 003:489.694 JLINK_HasError()
T87B0 003:489.699 JLINK_ReadMemU32(0xE0001004, 0x1 Items)
T87B0 003:489.708   Data:  00 00 00 00
T87B0 003:489.715   Debug reg: DWT_CYCCNT
T87B0 003:489.720 - 0.023ms returns 1 (0x1)
T87B0 003:489.725 JLINK_WriteU32_64(0xE0001004, 0x000003FF)
T87B0 003:489.729   Debug reg: DWT_CYCCNT
T87B0 003:489.739 - 0.016ms returns 0 (0x00000000)
T87B0 003:489.744 JLINK_WriteU32_64(0xE0001000, 0x0041061F)
T87B0 003:489.748   Debug reg: DWT_CTRL
T87B0 003:489.755 - 0.013ms returns 0 (0x00000000)
T87B0 003:489.760 JLINK_WriteU32_64(0xE0000E80, 0x0001000F)
T87B0 003:489.765   Debug reg: ITM_TCR
T87B0 003:489.771 - 0.012ms returns 0 (0x00000000)
T87B0 003:489.789 JLINK_SWO_Control(JLINKARM_SWO_CMD_GET_NUM_BYTES, ...)
T87B0 003:489.802 - 0.015ms returns 0x00
T87B0 003:489.808 JLINK_Go()
T87B0 003:490.153   CPU_WriteMem(4 bytes @ 0xE0002000)
T87B0 003:490.503   CPU_WriteMem(4 bytes @ 0xE0001000)
T87B0 003:490.733   CPU_ReadMem(4 bytes @ 0xE0001000)
T87B0 003:490.957   CPU_WriteMem(4 bytes @ 0xE0000E80)
T87B0 003:490.968   CPU_WriteMem(4 bytes @ 0xE0001008)
T87B0 003:490.974   CPU_WriteMem(4 bytes @ 0xE000100C)
T87B0 003:490.980   CPU_WriteMem(4 bytes @ 0xE0001010)
T87B0 003:490.986   CPU_WriteMem(4 bytes @ 0xE0001014)
T87B0 003:490.991   CPU_WriteMem(4 bytes @ 0xE0001018)
T87B0 003:490.997   CPU_WriteMem(4 bytes @ 0xE0002008)
T87B0 003:491.007   CPU_WriteMem(4 bytes @ 0xE000200C)
T87B0 003:491.013   CPU_WriteMem(4 bytes @ 0xE0002010)
T87B0 003:491.019   CPU_WriteMem(4 bytes @ 0xE0002014)
T87B0 003:491.025   CPU_WriteMem(4 bytes @ 0xE0002018)
T87B0 003:491.038   CPU_WriteMem(4 bytes @ 0xE000201C)
T87B0 003:492.795   CPU_WriteMem(4 bytes @ 0xE0001004)
T87B0 003:493.376 - 3.578ms
T87B0 003:493.398 JLINK_WriteU32_64(0xE0001000, 0x0001061F)
T87B0 003:493.406   Debug reg: DWT_CTRL
T87B0 003:493.419   CPU is running
T87B0 003:493.426   CPU_WriteMem(4 bytes @ 0xE0001000)
T87B0 003:493.643 - 0.252ms returns 0 (0x00000000)
T87B0 003:593.940 JLINK_SWO_Read(..., Offset = 0x00, NumBytes = 0x400000)
T87B0 003:593.956   Data: 
T87B0 003:593.962 - 0.024ms returns NumBytesRead = 0x00
T87B0 003:593.968 JLINK_SWO_Control(JLINKARM_SWO_CMD_FLUSH, ...)
T87B0 003:593.973 - 0.006ms returns 0x00
T87B0 003:593.979 JLINK_HasError()
T87B0 003:593.986 JLINK_IsHalted()
T87B0 003:595.857 - 1.885ms returns TRUE
T87B0 003:595.882 JLINK_HasError()
T87B0 003:596.066 JLINK_Halt()
T87B0 003:596.096 - 0.031ms returns 0x00
T87B0 003:596.102 JLINK_IsHalted()
T87B0 003:596.106 - 0.006ms returns TRUE
T87B0 003:596.111 JLINK_IsHalted()
T87B0 003:596.115 - 0.006ms returns TRUE
T87B0 003:596.120 JLINK_IsHalted()
T87B0 003:596.124 - 0.005ms returns TRUE
T87B0 003:596.129 JLINK_HasError()
T87B0 003:596.135 JLINK_ReadReg(R15 (PC))
T87B0 003:596.142 - 0.009ms returns 0x0801864C
T87B0 003:596.147 JLINK_ReadReg(XPSR)
T87B0 003:596.152 - 0.006ms returns 0x61000000
T87B0 003:596.158 JLINK_SWO_Read(..., Offset = 0x00, NumBytes = 0x400000)
T87B0 003:596.165   Data: 
T87B0 003:596.171 - 0.015ms returns NumBytesRead = 0x00
T87B0 003:596.176 JLINK_SWO_Control(JLINKARM_SWO_CMD_FLUSH, ...)
T87B0 003:596.180 - 0.006ms returns 0x00
T87B0 003:596.188 JLINK_HasError()
T87B0 003:596.193 JLINK_ClrBPEx(BPHandle = 0x00000001)
T87B0 003:596.198 - 0.007ms returns 0x00
T87B0 003:596.203 JLINK_HasError()
T87B0 003:596.208 JLINK_HasError()
T87B0 003:596.212 JLINK_ReadMemU32(0xE000ED30, 0x1 Items)
T87B0 003:596.226   CPU_ReadMem(4 bytes @ 0xE000ED30)
T87B0 003:596.433   Data:  02 00 00 00
T87B0 003:596.442 - 0.231ms returns 1 (0x1)
T87B0 003:596.449 JLINK_ReadMemU32(0xE0001028, 0x1 Items)
T87B0 003:596.460   CPU_ReadMem(4 bytes @ 0xE0001028)
T87B0 003:596.678   Data:  00 00 00 00
T87B0 003:596.689   Debug reg: DWT_FUNC[0]
T87B0 003:596.695 - 0.247ms returns 1 (0x1)
T87B0 003:596.702 JLINK_ReadMemU32(0xE0001038, 0x1 Items)
T87B0 003:596.710   CPU_ReadMem(4 bytes @ 0xE0001038)
T87B0 003:596.925   Data:  00 02 00 00
T87B0 003:596.933   Debug reg: DWT_FUNC[1]
T87B0 003:596.939 - 0.239ms returns 1 (0x1)
T87B0 003:596.945 JLINK_ReadMemU32(0xE0001048, 0x1 Items)
T87B0 003:596.952   CPU_ReadMem(4 bytes @ 0xE0001048)
T87B0 003:597.169   Data:  00 00 00 00
T87B0 003:597.182   Debug reg: DWT_FUNC[2]
T87B0 003:597.190 - 0.247ms returns 1 (0x1)
T87B0 003:597.198 JLINK_ReadMemU32(0xE0001058, 0x1 Items)
T87B0 003:597.209   CPU_ReadMem(4 bytes @ 0xE0001058)
T87B0 003:597.426   Data:  00 00 00 00
T87B0 003:597.438   Debug reg: DWT_FUNC[3]
T87B0 003:597.446 - 0.251ms returns 1 (0x1)
T87B0 003:597.537 JLINK_HasError()
T87B0 003:597.548 JLINK_ReadReg(R0)
T87B0 003:597.557 - 0.012ms returns 0x2000B480
T87B0 003:597.564 JLINK_ReadReg(R1)
T87B0 003:597.571 - 0.009ms returns 0x2000D480
T87B0 003:597.578 JLINK_ReadReg(R2)
T87B0 003:597.585 - 0.009ms returns 0x2000D480
T87B0 003:597.592 JLINK_ReadReg(R3)
T87B0 003:597.598 - 0.009ms returns 0x2000D480
T87B0 003:597.605 JLINK_ReadReg(R4)
T87B0 003:597.611 - 0.009ms returns 0x00000000
T87B0 003:597.618 JLINK_ReadReg(R5)
T87B0 003:597.624 - 0.009ms returns 0x2000B420
T87B0 003:597.632 JLINK_ReadReg(R6)
T87B0 003:597.638 - 0.010ms returns 0x00000000
T87B0 003:597.647 JLINK_ReadReg(R7)
T87B0 003:597.653 - 0.009ms returns 0x00000000
T87B0 003:597.661 JLINK_ReadReg(R8)
T87B0 003:597.668 - 0.009ms returns 0x00000000
T87B0 003:597.675 JLINK_ReadReg(R9)
T87B0 003:597.681 - 0.008ms returns 0x00000000
T87B0 003:597.692 JLINK_ReadReg(R10)
T87B0 003:597.701 - 0.012ms returns 0x08021934
T87B0 003:597.708 JLINK_ReadReg(R11)
T87B0 003:597.715 - 0.010ms returns 0x00000000
T87B0 003:597.723 JLINK_ReadReg(R12)
T87B0 003:597.730 - 0.010ms returns 0x2000B490
T87B0 003:597.737 JLINK_ReadReg(R13 (SP))
T87B0 003:597.744 - 0.010ms returns 0x2000F480
T87B0 003:597.751 JLINK_ReadReg(R14)
T87B0 003:597.758 - 0.009ms returns 0x0800030B
T87B0 003:597.765 JLINK_ReadReg(R15 (PC))
T87B0 003:597.771 - 0.009ms returns 0x0801864C
T87B0 003:597.778 JLINK_ReadReg(XPSR)
T87B0 003:597.785 - 0.009ms returns 0x61000000
T87B0 003:597.791 JLINK_ReadReg(MSP)
T87B0 003:597.795 - 0.006ms returns 0x2000F480
T87B0 003:597.800 JLINK_ReadReg(PSP)
T87B0 003:597.804 - 0.006ms returns 0x00000000
T87B0 003:597.809 JLINK_ReadReg(CFBP)
T87B0 003:597.813 - 0.006ms returns 0x04000000
T87B0 003:597.818 JLINK_ReadReg(FPSCR)
T87B0 003:600.631 - 2.835ms returns 0x00000000
T87B0 003:600.663 JLINK_ReadReg(FPS0)
T87B0 003:600.674 - 0.012ms returns 0x00000000
T87B0 003:600.679 JLINK_ReadReg(FPS1)
T87B0 003:600.684 - 0.007ms returns 0x00000000
T87B0 003:600.690 JLINK_ReadReg(FPS2)
T87B0 003:600.696 - 0.009ms returns 0x00000000
T87B0 003:600.702 JLINK_ReadReg(FPS3)
T87B0 003:600.707 - 0.006ms returns 0x00000000
T87B0 003:600.713 JLINK_ReadReg(FPS4)
T87B0 003:600.718 - 0.008ms returns 0x00000000
T87B0 003:600.725 JLINK_ReadReg(FPS5)
T87B0 003:600.730 - 0.008ms returns 0x00000000
T87B0 003:600.736 JLINK_ReadReg(FPS6)
T87B0 003:600.742 - 0.008ms returns 0x00000000
T87B0 003:600.748 JLINK_ReadReg(FPS7)
T87B0 003:600.753 - 0.007ms returns 0x00000000
T87B0 003:600.759 JLINK_ReadReg(FPS8)
T87B0 003:600.765 - 0.008ms returns 0x00000000
T87B0 003:600.771 JLINK_ReadReg(FPS9)
T87B0 003:600.776 - 0.008ms returns 0x00000000
T87B0 003:600.782 JLINK_ReadReg(FPS10)
T87B0 003:600.787 - 0.008ms returns 0x00000000
T87B0 003:600.794 JLINK_ReadReg(FPS11)
T87B0 003:600.799 - 0.008ms returns 0x00000000
T87B0 003:600.805 JLINK_ReadReg(FPS12)
T87B0 003:600.810 - 0.008ms returns 0x00000000
T87B0 003:600.817 JLINK_ReadReg(FPS13)
T87B0 003:600.823 - 0.008ms returns 0x00000000
T87B0 003:600.829 JLINK_ReadReg(FPS14)
T87B0 003:600.833 - 0.006ms returns 0x00000000
T87B0 003:600.838 JLINK_ReadReg(FPS15)
T87B0 003:600.842 - 0.006ms returns 0x00000000
T87B0 003:600.847 JLINK_ReadReg(FPS16)
T87B0 003:600.851 - 0.006ms returns 0x00000000
T87B0 003:600.856 JLINK_ReadReg(FPS17)
T87B0 003:600.860 - 0.006ms returns 0x00000000
T87B0 003:600.865 JLINK_ReadReg(FPS18)
T87B0 003:600.869 - 0.006ms returns 0x00000000
T87B0 003:600.874 JLINK_ReadReg(FPS19)
T87B0 003:600.878 - 0.006ms returns 0x00000000
T87B0 003:600.883 JLINK_ReadReg(FPS20)
T87B0 003:600.887 - 0.006ms returns 0x00000000
T87B0 003:600.892 JLINK_ReadReg(FPS21)
T87B0 003:600.896 - 0.006ms returns 0x00000000
T87B0 003:600.901 JLINK_ReadReg(FPS22)
T87B0 003:600.905 - 0.006ms returns 0x00000000
T87B0 003:600.910 JLINK_ReadReg(FPS23)
T87B0 003:600.914 - 0.006ms returns 0x00000000
T87B0 003:600.919 JLINK_ReadReg(FPS24)
T87B0 003:600.923 - 0.006ms returns 0x00000000
T87B0 003:600.928 JLINK_ReadReg(FPS25)
T87B0 003:600.932 - 0.006ms returns 0x00000000
T87B0 003:600.937 JLINK_ReadReg(FPS26)
T87B0 003:600.941 - 0.006ms returns 0x00000000
T87B0 003:600.946 JLINK_ReadReg(FPS27)
T87B0 003:600.950 - 0.006ms returns 0x00000000
T87B0 003:600.955 JLINK_ReadReg(FPS28)
T87B0 003:600.959 - 0.006ms returns 0x00000000
T87B0 003:600.964 JLINK_ReadReg(FPS29)
T87B0 003:600.968 - 0.006ms returns 0x00000000
T87B0 003:600.973 JLINK_ReadReg(FPS30)
T87B0 003:600.977 - 0.006ms returns 0x00000000
T87B0 003:600.982 JLINK_ReadReg(FPS31)
T87B0 003:600.986 - 0.006ms returns 0x00000000
T87B0 003:600.995 JLINK_ReadMemEx(0x200000BC, 0x4 Bytes, Flags = 0x02000000)
T87B0 003:601.007   CPU_ReadMem(64 bytes @ 0x20000080)
T87B0 003:601.496    -- Updating C cache (64 bytes @ 0x20000080)
T87B0 003:601.516    -- Read from C cache (4 bytes @ 0x200000BC)
T87B0 003:601.528   Data:  00 00 00 00
T87B0 003:601.539 - 0.552ms returns 4 (0x4)
T2A64 003:603.074 JLINK_ReadMemEx(0x2000A958, 0x10 Bytes, Flags = 0x02000000)
T2A64 003:603.096   CPU_ReadMem(64 bytes @ 0x2000A940)
T2A64 003:603.582    -- Updating C cache (64 bytes @ 0x2000A940)
T2A64 003:603.593    -- Read from C cache (16 bytes @ 0x2000A958)
T2A64 003:603.600   Data:  00 00 00 00 00 00 00 00 00 00 00 00 00 00 00 00
T2A64 003:603.606 - 0.534ms returns 16 (0x10)
T2A64 003:603.647 JLINK_ReadMemEx(0x200002B0, 0x4 Bytes, Flags = 0x02000000)
T2A64 003:603.656   CPU_ReadMem(64 bytes @ 0x20000280)
T2A64 003:604.118    -- Updating C cache (64 bytes @ 0x20000280)
T2A64 003:604.126    -- Read from C cache (4 bytes @ 0x200002B0)
T2A64 003:604.132   Data:  00 00 00 00
T2A64 003:604.138 - 0.493ms returns 4 (0x4)
T2A64 003:604.178 JLINK_ReadMemEx(0x20000514, 0x4 Bytes, Flags = 0x02000000)
T2A64 003:604.186   CPU_ReadMem(64 bytes @ 0x20000500)
T2A64 003:604.678    -- Updating C cache (64 bytes @ 0x20000500)
T2A64 003:604.688    -- Read from C cache (4 bytes @ 0x20000514)
T2A64 003:604.694   Data:  00 00 00 00
T2A64 003:604.700 - 0.524ms returns 4 (0x4)
T2A64 003:604.999 JLINK_ReadMemEx(0x2000048C, 0x4 Bytes, Flags = 0x02000000)
T2A64 003:605.012   CPU_ReadMem(64 bytes @ 0x20000480)
T2A64 003:605.475    -- Updating C cache (64 bytes @ 0x20000480)
T2A64 003:605.486    -- Read from C cache (4 bytes @ 0x2000048C)
T2A64 003:605.492   Data:  00 00 00 00
T2A64 003:605.498 - 0.501ms returns 4 (0x4)
T2A64 003:605.687 JLINK_ReadMemEx(0x20000490, 0x4 Bytes, Flags = 0x02000000)
T2A64 003:605.698    -- Read from C cache (4 bytes @ 0x20000490)
T2A64 003:605.704   Data:  00 00 00 00
T2A64 003:605.710 - 0.025ms returns 4 (0x4)
T2A64 003:605.872 JLINK_ReadMemEx(0x200005DC, 0x4 Bytes, Flags = 0x02000000)
T2A64 003:605.883   CPU_ReadMem(64 bytes @ 0x200005C0)
T2A64 003:606.395    -- Updating C cache (64 bytes @ 0x200005C0)
T2A64 003:606.406    -- Read from C cache (4 bytes @ 0x200005DC)
T2A64 003:606.413   Data:  33 33 7B 41
T2A64 003:606.419 - 0.549ms returns 4 (0x4)
T2A64 003:606.890 JLINK_ReadMemEx(0x200005BC, 0x4 Bytes, Flags = 0x02000000)
T2A64 003:606.907   CPU_ReadMem(64 bytes @ 0x20000580)
T2A64 003:607.424    -- Updating C cache (64 bytes @ 0x20000580)
T2A64 003:607.439    -- Read from C cache (4 bytes @ 0x200005BC)
T2A64 003:607.448   Data:  00 00 00 00
T2A64 003:607.456 - 0.569ms returns 4 (0x4)
T2A64 003:607.521 JLINK_ReadMemEx(0x2000034C, 0x4 Bytes, Flags = 0x02000000)
T2A64 003:607.536   CPU_ReadMem(64 bytes @ 0x20000340)
T2A64 003:608.008    -- Updating C cache (64 bytes @ 0x20000340)
T2A64 003:608.019    -- Read from C cache (4 bytes @ 0x2000034C)
T2A64 003:608.026   Data:  00 00 00 00
T2A64 003:608.032 - 0.513ms returns 4 (0x4)
T2A64 003:608.374 JLINK_ReadMemEx(0x2000033C, 0x4 Bytes, Flags = 0x02000000)
T2A64 003:608.394   CPU_ReadMem(64 bytes @ 0x20000300)
T2A64 003:608.874    -- Updating C cache (64 bytes @ 0x20000300)
T2A64 003:608.886    -- Read from C cache (4 bytes @ 0x2000033C)
T2A64 003:608.893   Data:  00 00 00 00
T2A64 003:608.912 - 0.539ms returns 4 (0x4)
T2A64 003:609.146 JLINK_ReadMemEx(0x200002F8, 0x4 Bytes, Flags = 0x02000000)
T2A64 003:609.161   CPU_ReadMem(64 bytes @ 0x200002C0)
T2A64 003:609.635    -- Updating C cache (64 bytes @ 0x200002C0)
T2A64 003:609.648    -- Read from C cache (4 bytes @ 0x200002F8)
T2A64 003:609.657   Data:  00 00 00 00
T2A64 003:609.663 - 0.518ms returns 4 (0x4)
T2A64 003:609.930 JLINK_ReadMemEx(0x20000484, 0x4 Bytes, Flags = 0x02000000)
T2A64 003:609.942    -- Read from C cache (4 bytes @ 0x20000484)
T2A64 003:609.948   Data:  00 00 00 00
T2A64 003:609.954 - 0.025ms returns 4 (0x4)
T2A64 003:610.100 JLINK_ReadMemEx(0x200005A8, 0x4 Bytes, Flags = 0x02000000)
T2A64 003:610.110    -- Read from C cache (4 bytes @ 0x200005A8)
T2A64 003:610.116   Data:  00 00 00 00
T2A64 003:610.122 - 0.023ms returns 4 (0x4)
T2A64 003:610.308 JLINK_ReadMemEx(0x20000550, 0x4 Bytes, Flags = 0x02000000)
T2A64 003:610.320   CPU_ReadMem(64 bytes @ 0x20000540)
T2A64 003:610.803    -- Updating C cache (64 bytes @ 0x20000540)
T2A64 003:610.825    -- Read from C cache (4 bytes @ 0x20000550)
T2A64 003:610.834   Data:  00 00 00 00
T2A64 003:610.842 - 0.537ms returns 4 (0x4)
T2A64 003:610.873 JLINK_ReadMemEx(0x20000548, 0x4 Bytes, Flags = 0x02000000)
T2A64 003:610.888    -- Read from C cache (4 bytes @ 0x20000548)
T2A64 003:610.896   Data:  00 00 00 00
T2A64 003:610.905 - 0.034ms returns 4 (0x4)
T2A64 003:610.921 JLINK_ReadMemEx(0x200005A8, 0x4 Bytes, Flags = 0x02000000)
T2A64 003:610.931    -- Read from C cache (4 bytes @ 0x200005A8)
T2A64 003:610.939   Data:  00 00 00 00
T2A64 003:610.947 - 0.029ms returns 4 (0x4)
T2A64 003:611.228 JLINK_ReadMemEx(0x2000053C, 0x4 Bytes, Flags = 0x02000000)
T2A64 003:611.243    -- Read from C cache (4 bytes @ 0x2000053C)
T2A64 003:611.251   Data:  00 00 00 00
T2A64 003:611.257 - 0.031ms returns 4 (0x4)
T2A64 003:611.413 JLINK_ReadMemEx(0x200005E0, 0x4 Bytes, Flags = 0x02000000)
T2A64 003:611.424    -- Read from C cache (4 bytes @ 0x200005E0)
T2A64 003:611.544   Data:  00 00 00 00
T2A64 003:611.555 - 0.145ms returns 4 (0x4)
T2A64 003:617.801 JLINK_ReadMemEx(0x0801854C, 0x3C Bytes, Flags = 0x02000000)
T2A64 003:617.823   CPU_ReadMem(128 bytes @ 0x08018540)
T2A64 003:618.564    -- Updating C cache (128 bytes @ 0x08018540)
T2A64 003:618.577    -- Read from C cache (60 bytes @ 0x0801854C)
T2A64 003:618.584   Data:  27 0A C8 EE 80 0A F0 EE 60 8A 9F ED 24 0A C9 EE ...
T2A64 003:618.590 - 0.791ms returns 60 (0x3C)
T2A64 003:618.597 JLINK_ReadMemEx(0x0801854C, 0x2 Bytes, Flags = 0x02000000)
T2A64 003:618.615    -- Read from C cache (2 bytes @ 0x0801854C)
T2A64 003:618.636   Data:  27 0A
T2A64 003:618.641 - 0.046ms returns 2 (0x2)
T2A64 003:618.713 JLINK_ReadMemEx(0x0801854E, 0x2 Bytes, Flags = 0x02000000)
